V1	V(N002,N003)	Ix(D1:+)
-4.297000000000000e+00	-3.860623e+00	-2.181884e-03
-4.287000000000000e+00	-3.860058e+00	-2.134710e-03
-4.277000000000000e+00	-3.859481e+00	-2.087597e-03
-4.266999999999999e+00	-3.858891e+00	-2.040545e-03
-4.257000000000000e+00	-3.858288e+00	-1.993557e-03
-4.247000000000000e+00	-3.857672e+00	-1.946638e-03
-4.237000000000000e+00	-3.857042e+00	-1.899788e-03
-4.226999999999999e+00	-3.856398e+00	-1.853012e-03
-4.217000000000000e+00	-3.855737e+00	-1.806313e-03
-4.207000000000000e+00	-3.855061e+00	-1.759695e-03
-4.197000000000000e+00	-3.854368e+00	-1.713161e-03
-4.186999999999999e+00	-3.853657e+00	-1.666715e-03
-4.177000000000000e+00	-3.852927e+00	-1.620363e-03
-4.167000000000000e+00	-3.852178e+00	-1.574108e-03
-4.157000000000000e+00	-3.851409e+00	-1.527956e-03
-4.146999999999999e+00	-3.850617e+00	-1.481913e-03
-4.137000000000000e+00	-3.849803e+00	-1.435985e-03
-4.127000000000000e+00	-3.848964e+00	-1.390178e-03
-4.117000000000000e+00	-3.848100e+00	-1.344498e-03
-4.106999999999999e+00	-3.847209e+00	-1.298955e-03
-4.097000000000000e+00	-3.846289e+00	-1.253556e-03
-4.087000000000000e+00	-3.845338e+00	-1.208310e-03
-4.077000000000000e+00	-3.844354e+00	-1.163228e-03
-4.066999999999999e+00	-3.843336e+00	-1.118319e-03
-4.056999999999999e+00	-3.842281e+00	-1.073597e-03
-4.047000000000000e+00	-3.841185e+00	-1.029075e-03
-4.037000000000000e+00	-3.840047e+00	-9.847665e-04
-4.026999999999999e+00	-3.838862e+00	-9.406886e-04
-4.016999999999999e+00	-3.837628e+00	-8.968591e-04
-4.007000000000000e+00	-3.836340e+00	-8.532982e-04
-3.997000000000000e+00	-3.834994e+00	-8.100282e-04
-3.987000000000000e+00	-3.833585e+00	-7.670745e-04
-3.977000000000000e+00	-3.832107e+00	-7.244654e-04
-3.967000000000000e+00	-3.830553e+00	-6.822330e-04
-3.957000000000000e+00	-3.828917e+00	-6.404137e-04
-3.947000000000000e+00	-3.827190e+00	-5.990497e-04
-3.937000000000000e+00	-3.825363e+00	-5.581858e-04
-3.927000000000000e+00	-3.823424e+00	-5.178788e-04
-3.917000000000000e+00	-3.821362e+00	-4.781902e-04
-3.907000000000000e+00	-3.819162e+00	-4.391921e-04
-3.897000000000000e+00	-3.816806e+00	-4.009678e-04
-3.887000000000000e+00	-3.814277e+00	-3.636142e-04
-3.877000000000000e+00	-3.811551e+00	-3.272436e-04
-3.867000000000000e+00	-3.808603e+00	-2.919870e-04
-3.857000000000000e+00	-3.805415e+00	-2.581267e-04
-3.847000000000000e+00	-3.801913e+00	-2.254378e-04
-3.837000000000000e+00	-3.798097e+00	-1.945178e-04
-3.827000000000000e+00	-3.793910e+00	-1.654487e-04
-3.817000000000000e+00	-3.789306e+00	-1.384697e-04
-3.806999999999999e+00	-3.784236e+00	-1.138208e-04
-3.797000000000000e+00	-3.778654e+00	-9.172850e-05
-3.787000000000000e+00	-3.772525e+00	-7.237480e-05
-3.777000000000000e+00	-3.765831e+00	-5.587234e-05
-3.766999999999999e+00	-3.758564e+00	-4.218578e-05
-3.757000000000000e+00	-3.750760e+00	-3.119880e-05
-3.747000000000000e+00	-3.742471e+00	-2.264423e-05
-3.737000000000000e+00	-3.733766e+00	-1.617266e-05
-3.726999999999999e+00	-3.724720e+00	-1.139989e-05
-3.717000000000000e+00	-3.715409e+00	-7.953631e-06
-3.707000000000000e+00	-3.705900e+00	-5.506701e-06
-3.697000000000000e+00	-3.696242e+00	-3.790825e-06
-3.687000000000000e+00	-3.686480e+00	-2.599104e-06
-3.677000000000000e+00	-3.676645e+00	-1.776950e-06
-3.667000000000000e+00	-3.666758e+00	-1.212446e-06
-3.657000000000000e+00	-3.656835e+00	-8.261363e-07
-3.647000000000000e+00	-3.646888e+00	-5.623800e-07
-3.637000000000000e+00	-3.636924e+00	-3.825837e-07
-3.627000000000000e+00	-3.626948e+00	-2.601543e-07
-3.617000000000000e+00	-3.616965e+00	-1.768500e-07
-3.607000000000000e+00	-3.606976e+00	-1.201963e-07
-3.597000000000000e+00	-3.596984e+00	-8.168044e-08
-3.587000000000000e+00	-3.586989e+00	-5.550172e-08
-3.577000000000000e+00	-3.576993e+00	-3.771125e-08
-3.567000000000000e+00	-3.566995e+00	-2.562255e-08
-3.556999999999999e+00	-3.556997e+00	-1.740884e-08
-3.547000000000000e+00	-3.546998e+00	-1.182828e-08
-3.537000000000000e+00	-3.536999e+00	-8.036873e-09
-3.527000000000000e+00	-3.526999e+00	-5.461059e-09
-3.516999999999999e+00	-3.516999e+00	-3.711127e-09
-3.507000000000000e+00	-3.506999e+00	-2.522287e-09
-3.497000000000000e+00	-3.497000e+00	-1.714636e-09
-3.487000000000000e+00	-3.487000e+00	-1.165952e-09
-3.476999999999999e+00	-3.477000e+00	-7.931991e-10
-3.467000000000000e+00	-3.467000e+00	-5.399665e-10
-3.457000000000000e+00	-3.457000e+00	-3.679299e-10
-3.447000000000000e+00	-3.447000e+00	-2.510539e-10
-3.437000000000000e+00	-3.437000e+00	-1.716513e-10
-3.427000000000000e+00	-3.427000e+00	-1.177061e-10
-3.417000000000000e+00	-3.417000e+00	-8.105535e-11
-3.407000000000000e+00	-3.407000e+00	-5.615358e-11
-3.397000000000000e+00	-3.397000e+00	-3.923343e-11
-3.387000000000000e+00	-3.387000e+00	-2.773557e-11
-3.377000000000000e+00	-3.377000e+00	-1.992133e-11
-3.367000000000000e+00	-3.367000e+00	-1.460955e-11
-3.357000000000000e+00	-3.357000e+00	-1.099779e-11
-3.347000000000000e+00	-3.347000e+00	-8.540955e-12
-3.337000000000000e+00	-3.337000e+00	-6.868704e-12
-3.327000000000000e+00	-3.327000e+00	-5.729458e-12
-3.317000000000000e+00	-3.317000e+00	-4.952309e-12
-3.306999999999999e+00	-3.307000e+00	-4.421148e-12
-3.297000000000000e+00	-3.297000e+00	-4.057100e-12
-3.287000000000000e+00	-3.287000e+00	-3.806578e-12
-3.277000000000000e+00	-3.277000e+00	-3.633180e-12
-3.266999999999999e+00	-3.267000e+00	-3.512176e-12
-3.257000000000000e+00	-3.257000e+00	-3.426766e-12
-3.247000000000000e+00	-3.247000e+00	-3.365537e-12
-3.237000000000000e+00	-3.237000e+00	-3.320734e-12
-3.226999999999999e+00	-3.227000e+00	-3.287091e-12
-3.217000000000000e+00	-3.217000e+00	-3.261029e-12
-3.207000000000000e+00	-3.207000e+00	-3.240118e-12
-3.197000000000000e+00	-3.197000e+00	-3.222705e-12
-3.186999999999999e+00	-3.187000e+00	-3.207669e-12
-3.177000000000000e+00	-3.177000e+00	-3.194248e-12
-3.167000000000000e+00	-3.167000e+00	-3.181924e-12
-3.157000000000000e+00	-3.157000e+00	-3.170345e-12
-3.146999999999999e+00	-3.147000e+00	-3.159273e-12
-3.137000000000000e+00	-3.137000e+00	-3.148544e-12
-3.127000000000000e+00	-3.127000e+00	-3.138049e-12
-3.117000000000000e+00	-3.117000e+00	-3.127712e-12
-3.107000000000000e+00	-3.107000e+00	-3.117484e-12
-3.097000000000000e+00	-3.097000e+00	-3.107329e-12
-3.087000000000000e+00	-3.087000e+00	-3.097223e-12
-3.077000000000000e+00	-3.077000e+00	-3.087152e-12
-3.067000000000000e+00	-3.067000e+00	-3.077103e-12
-3.056999999999999e+00	-3.057000e+00	-3.067070e-12
-3.047000000000000e+00	-3.047000e+00	-3.057048e-12
-3.037000000000000e+00	-3.037000e+00	-3.047032e-12
-3.027000000000000e+00	-3.027000e+00	-3.037022e-12
-3.016999999999999e+00	-3.017000e+00	-3.027015e-12
-3.007000000000000e+00	-3.007000e+00	-3.017010e-12
-2.997000000000000e+00	-2.997000e+00	-3.007007e-12
-2.987000000000000e+00	-2.987000e+00	-2.997005e-12
-2.976999999999999e+00	-2.977000e+00	-2.987003e-12
-2.967000000000000e+00	-2.967000e+00	-2.977002e-12
-2.957000000000000e+00	-2.957000e+00	-2.967001e-12
-2.947000000000000e+00	-2.947000e+00	-2.957001e-12
-2.936999999999999e+00	-2.937000e+00	-2.947001e-12
-2.927000000000000e+00	-2.927000e+00	-2.937000e-12
-2.917000000000000e+00	-2.917000e+00	-2.927000e-12
-2.907000000000000e+00	-2.907000e+00	-2.917000e-12
-2.896999999999999e+00	-2.897000e+00	-2.907000e-12
-2.887000000000000e+00	-2.887000e+00	-2.897000e-12
-2.877000000000000e+00	-2.877000e+00	-2.887000e-12
-2.867000000000000e+00	-2.867000e+00	-2.877000e-12
-2.857000000000000e+00	-2.857000e+00	-2.867000e-12
-2.847000000000000e+00	-2.847000e+00	-2.857000e-12
-2.837000000000000e+00	-2.837000e+00	-2.847000e-12
-2.827000000000000e+00	-2.827000e+00	-2.837000e-12
-2.817000000000000e+00	-2.817000e+00	-2.827000e-12
-2.806999999999999e+00	-2.807000e+00	-2.817000e-12
-2.797000000000000e+00	-2.797000e+00	-2.807000e-12
-2.787000000000000e+00	-2.787000e+00	-2.797000e-12
-2.777000000000000e+00	-2.777000e+00	-2.787000e-12
-2.766999999999999e+00	-2.767000e+00	-2.777000e-12
-2.757000000000000e+00	-2.757000e+00	-2.767000e-12
-2.747000000000000e+00	-2.747000e+00	-2.757000e-12
-2.737000000000000e+00	-2.737000e+00	-2.747000e-12
-2.726999999999999e+00	-2.727000e+00	-2.737000e-12
-2.717000000000000e+00	-2.717000e+00	-2.727000e-12
-2.707000000000000e+00	-2.707000e+00	-2.717000e-12
-2.697000000000000e+00	-2.697000e+00	-2.707000e-12
-2.686999999999999e+00	-2.687000e+00	-2.697000e-12
-2.677000000000000e+00	-2.677000e+00	-2.687000e-12
-2.667000000000000e+00	-2.667000e+00	-2.677000e-12
-2.657000000000000e+00	-2.657000e+00	-2.667000e-12
-2.646999999999999e+00	-2.647000e+00	-2.657000e-12
-2.637000000000000e+00	-2.637000e+00	-2.647000e-12
-2.627000000000000e+00	-2.627000e+00	-2.637000e-12
-2.617000000000000e+00	-2.617000e+00	-2.627000e-12
-2.607000000000000e+00	-2.607000e+00	-2.617000e-12
-2.597000000000000e+00	-2.597000e+00	-2.607000e-12
-2.587000000000000e+00	-2.587000e+00	-2.597000e-12
-2.577000000000000e+00	-2.577000e+00	-2.587000e-12
-2.567000000000000e+00	-2.567000e+00	-2.577000e-12
-2.556999999999999e+00	-2.557000e+00	-2.567000e-12
-2.547000000000000e+00	-2.547000e+00	-2.557000e-12
-2.537000000000000e+00	-2.537000e+00	-2.547000e-12
-2.527000000000000e+00	-2.527000e+00	-2.537000e-12
-2.516999999999999e+00	-2.517000e+00	-2.527000e-12
-2.507000000000000e+00	-2.507000e+00	-2.517000e-12
-2.497000000000000e+00	-2.497000e+00	-2.507000e-12
-2.487000000000000e+00	-2.487000e+00	-2.497000e-12
-2.476999999999999e+00	-2.477000e+00	-2.487000e-12
-2.467000000000000e+00	-2.467000e+00	-2.477000e-12
-2.457000000000000e+00	-2.457000e+00	-2.467000e-12
-2.447000000000000e+00	-2.447000e+00	-2.457000e-12
-2.436999999999999e+00	-2.437000e+00	-2.447000e-12
-2.427000000000000e+00	-2.427000e+00	-2.437000e-12
-2.417000000000000e+00	-2.417000e+00	-2.427000e-12
-2.407000000000000e+00	-2.407000e+00	-2.417000e-12
-2.396999999999999e+00	-2.397000e+00	-2.407000e-12
-2.387000000000000e+00	-2.387000e+00	-2.397000e-12
-2.377000000000000e+00	-2.377000e+00	-2.387000e-12
-2.367000000000000e+00	-2.367000e+00	-2.377000e-12
-2.357000000000000e+00	-2.357000e+00	-2.367000e-12
-2.347000000000000e+00	-2.347000e+00	-2.357000e-12
-2.337000000000000e+00	-2.337000e+00	-2.347000e-12
-2.327000000000000e+00	-2.327000e+00	-2.337000e-12
-2.317000000000000e+00	-2.317000e+00	-2.327000e-12
-2.306999999999999e+00	-2.307000e+00	-2.317000e-12
-2.297000000000000e+00	-2.297000e+00	-2.307000e-12
-2.286999999999999e+00	-2.287000e+00	-2.297000e-12
-2.277000000000000e+00	-2.277000e+00	-2.287000e-12
-2.266999999999999e+00	-2.267000e+00	-2.277000e-12
-2.257000000000000e+00	-2.257000e+00	-2.267000e-12
-2.247000000000000e+00	-2.247000e+00	-2.257000e-12
-2.237000000000000e+00	-2.237000e+00	-2.247000e-12
-2.227000000000000e+00	-2.227000e+00	-2.237000e-12
-2.217000000000000e+00	-2.217000e+00	-2.227000e-12
-2.207000000000000e+00	-2.207000e+00	-2.217000e-12
-2.197000000000000e+00	-2.197000e+00	-2.207000e-12
-2.187000000000000e+00	-2.187000e+00	-2.197000e-12
-2.177000000000000e+00	-2.177000e+00	-2.187000e-12
-2.167000000000000e+00	-2.167000e+00	-2.177000e-12
-2.157000000000000e+00	-2.157000e+00	-2.167000e-12
-2.147000000000000e+00	-2.147000e+00	-2.157000e-12
-2.137000000000000e+00	-2.137000e+00	-2.147000e-12
-2.127000000000000e+00	-2.127000e+00	-2.137000e-12
-2.117000000000000e+00	-2.117000e+00	-2.127000e-12
-2.107000000000000e+00	-2.107000e+00	-2.117000e-12
-2.097000000000000e+00	-2.097000e+00	-2.107000e-12
-2.087000000000000e+00	-2.087000e+00	-2.097000e-12
-2.077000000000000e+00	-2.077000e+00	-2.087000e-12
-2.067000000000000e+00	-2.067000e+00	-2.077000e-12
-2.056999999999999e+00	-2.057000e+00	-2.067000e-12
-2.047000000000000e+00	-2.047000e+00	-2.057000e-12
-2.036999999999999e+00	-2.037000e+00	-2.047000e-12
-2.027000000000000e+00	-2.027000e+00	-2.037000e-12
-2.016999999999999e+00	-2.017000e+00	-2.027000e-12
-2.007000000000000e+00	-2.007000e+00	-2.017000e-12
-1.996999999999999e+00	-1.997000e+00	-2.007000e-12
-1.987000000000000e+00	-1.987000e+00	-1.997000e-12
-1.977000000000000e+00	-1.977000e+00	-1.987000e-12
-1.967000000000000e+00	-1.967000e+00	-1.977000e-12
-1.957000000000000e+00	-1.957000e+00	-1.967000e-12
-1.947000000000000e+00	-1.947000e+00	-1.957000e-12
-1.937000000000000e+00	-1.937000e+00	-1.947000e-12
-1.927000000000000e+00	-1.927000e+00	-1.937000e-12
-1.917000000000000e+00	-1.917000e+00	-1.927000e-12
-1.907000000000000e+00	-1.907000e+00	-1.917000e-12
-1.897000000000000e+00	-1.897000e+00	-1.907000e-12
-1.887000000000000e+00	-1.887000e+00	-1.897000e-12
-1.877000000000000e+00	-1.877000e+00	-1.887000e-12
-1.867000000000000e+00	-1.867000e+00	-1.877000e-12
-1.857000000000000e+00	-1.857000e+00	-1.867000e-12
-1.847000000000000e+00	-1.847000e+00	-1.857000e-12
-1.837000000000000e+00	-1.837000e+00	-1.847000e-12
-1.827000000000000e+00	-1.827000e+00	-1.837000e-12
-1.817000000000000e+00	-1.817000e+00	-1.827000e-12
-1.806999999999999e+00	-1.807000e+00	-1.817000e-12
-1.797000000000000e+00	-1.797000e+00	-1.807000e-12
-1.786999999999999e+00	-1.787000e+00	-1.797000e-12
-1.777000000000000e+00	-1.777000e+00	-1.787000e-12
-1.766999999999999e+00	-1.767000e+00	-1.777000e-12
-1.757000000000000e+00	-1.757000e+00	-1.767000e-12
-1.746999999999999e+00	-1.747000e+00	-1.757000e-12
-1.737000000000000e+00	-1.737000e+00	-1.747000e-12
-1.727000000000000e+00	-1.727000e+00	-1.737000e-12
-1.717000000000000e+00	-1.717000e+00	-1.727000e-12
-1.707000000000000e+00	-1.707000e+00	-1.717000e-12
-1.697000000000000e+00	-1.697000e+00	-1.707000e-12
-1.687000000000000e+00	-1.687000e+00	-1.697000e-12
-1.677000000000000e+00	-1.677000e+00	-1.687000e-12
-1.667000000000000e+00	-1.667000e+00	-1.677000e-12
-1.657000000000000e+00	-1.657000e+00	-1.667000e-12
-1.647000000000000e+00	-1.647000e+00	-1.657000e-12
-1.637000000000000e+00	-1.637000e+00	-1.647000e-12
-1.627000000000000e+00	-1.627000e+00	-1.637000e-12
-1.617000000000000e+00	-1.617000e+00	-1.627000e-12
-1.607000000000000e+00	-1.607000e+00	-1.617000e-12
-1.597000000000000e+00	-1.597000e+00	-1.607000e-12
-1.587000000000000e+00	-1.587000e+00	-1.597000e-12
-1.577000000000000e+00	-1.577000e+00	-1.587000e-12
-1.567000000000000e+00	-1.567000e+00	-1.577000e-12
-1.556999999999999e+00	-1.557000e+00	-1.567000e-12
-1.547000000000000e+00	-1.547000e+00	-1.557000e-12
-1.536999999999999e+00	-1.537000e+00	-1.547000e-12
-1.527000000000000e+00	-1.527000e+00	-1.537000e-12
-1.516999999999999e+00	-1.517000e+00	-1.527000e-12
-1.507000000000000e+00	-1.507000e+00	-1.517000e-12
-1.496999999999999e+00	-1.497000e+00	-1.507000e-12
-1.487000000000000e+00	-1.487000e+00	-1.497000e-12
-1.477000000000000e+00	-1.477000e+00	-1.487000e-12
-1.467000000000000e+00	-1.467000e+00	-1.477000e-12
-1.457000000000000e+00	-1.457000e+00	-1.467000e-12
-1.447000000000000e+00	-1.447000e+00	-1.457000e-12
-1.437000000000000e+00	-1.437000e+00	-1.447000e-12
-1.427000000000000e+00	-1.427000e+00	-1.437000e-12
-1.417000000000000e+00	-1.417000e+00	-1.427000e-12
-1.407000000000000e+00	-1.407000e+00	-1.417000e-12
-1.397000000000000e+00	-1.397000e+00	-1.407000e-12
-1.387000000000000e+00	-1.387000e+00	-1.397000e-12
-1.377000000000000e+00	-1.377000e+00	-1.387000e-12
-1.367000000000000e+00	-1.367000e+00	-1.377000e-12
-1.357000000000000e+00	-1.357000e+00	-1.367000e-12
-1.347000000000000e+00	-1.347000e+00	-1.357000e-12
-1.337000000000000e+00	-1.337000e+00	-1.347000e-12
-1.327000000000000e+00	-1.327000e+00	-1.337000e-12
-1.317000000000000e+00	-1.317000e+00	-1.327000e-12
-1.306999999999999e+00	-1.307000e+00	-1.317000e-12
-1.297000000000000e+00	-1.297000e+00	-1.307000e-12
-1.286999999999999e+00	-1.287000e+00	-1.297000e-12
-1.277000000000000e+00	-1.277000e+00	-1.287000e-12
-1.266999999999999e+00	-1.267000e+00	-1.277000e-12
-1.257000000000000e+00	-1.257000e+00	-1.267000e-12
-1.246999999999999e+00	-1.247000e+00	-1.257000e-12
-1.237000000000000e+00	-1.237000e+00	-1.247000e-12
-1.226999999999999e+00	-1.227000e+00	-1.237000e-12
-1.217000000000000e+00	-1.217000e+00	-1.227000e-12
-1.207000000000000e+00	-1.207000e+00	-1.217000e-12
-1.197000000000000e+00	-1.197000e+00	-1.207000e-12
-1.187000000000000e+00	-1.187000e+00	-1.197000e-12
-1.177000000000000e+00	-1.177000e+00	-1.187000e-12
-1.167000000000000e+00	-1.167000e+00	-1.177000e-12
-1.157000000000000e+00	-1.157000e+00	-1.167000e-12
-1.147000000000000e+00	-1.147000e+00	-1.157000e-12
-1.137000000000000e+00	-1.137000e+00	-1.147000e-12
-1.127000000000000e+00	-1.127000e+00	-1.137000e-12
-1.117000000000000e+00	-1.117000e+00	-1.127000e-12
-1.107000000000000e+00	-1.107000e+00	-1.117000e-12
-1.097000000000000e+00	-1.097000e+00	-1.107000e-12
-1.087000000000000e+00	-1.087000e+00	-1.097000e-12
-1.077000000000000e+00	-1.077000e+00	-1.087000e-12
-1.067000000000000e+00	-1.067000e+00	-1.077000e-12
-1.056999999999999e+00	-1.057000e+00	-1.067000e-12
-1.047000000000000e+00	-1.047000e+00	-1.057000e-12
-1.036999999999999e+00	-1.037000e+00	-1.047000e-12
-1.027000000000000e+00	-1.027000e+00	-1.037000e-12
-1.016999999999999e+00	-1.017000e+00	-1.027000e-12
-1.007000000000000e+00	-1.007000e+00	-1.017000e-12
-9.969999999999994e-01	-9.970000e-01	-1.007000e-12
-9.869999999999997e-01	-9.870000e-01	-9.970000e-13
-9.769999999999994e-01	-9.770000e-01	-9.870000e-13
-9.669999999999996e-01	-9.670000e-01	-9.769999e-13
-9.569999999999999e-01	-9.570000e-01	-9.670000e-13
-9.469999999999996e-01	-9.470000e-01	-9.570000e-13
-9.369999999999998e-01	-9.370000e-01	-9.470000e-13
-9.269999999999996e-01	-9.270000e-01	-9.370000e-13
-9.169999999999998e-01	-9.170000e-01	-9.270000e-13
-9.069999999999996e-01	-9.070000e-01	-9.170000e-13
-8.969999999999998e-01	-8.970000e-01	-9.070000e-13
-8.869999999999996e-01	-8.870000e-01	-8.970000e-13
-8.769999999999998e-01	-8.770000e-01	-8.870000e-13
-8.669999999999995e-01	-8.670000e-01	-8.770000e-13
-8.569999999999998e-01	-8.570000e-01	-8.670000e-13
-8.469999999999995e-01	-8.470000e-01	-8.570000e-13
-8.369999999999997e-01	-8.370000e-01	-8.470000e-13
-8.269999999999995e-01	-8.270000e-01	-8.370000e-13
-8.169999999999997e-01	-8.170000e-01	-8.270000e-13
-8.069999999999995e-01	-8.070000e-01	-8.170000e-13
-7.969999999999997e-01	-7.970000e-01	-8.070000e-13
-7.869999999999995e-01	-7.870000e-01	-7.970000e-13
-7.769999999999997e-01	-7.770000e-01	-7.870000e-13
-7.669999999999995e-01	-7.670000e-01	-7.770000e-13
-7.569999999999997e-01	-7.570000e-01	-7.670000e-13
-7.469999999999994e-01	-7.470000e-01	-7.570000e-13
-7.369999999999997e-01	-7.370000e-01	-7.470000e-13
-7.269999999999994e-01	-7.270000e-01	-7.370000e-13
-7.169999999999996e-01	-7.170000e-01	-7.270000e-13
-7.069999999999999e-01	-7.070000e-01	-7.170000e-13
-6.969999999999996e-01	-6.970000e-01	-7.070000e-13
-6.869999999999998e-01	-6.870000e-01	-6.970000e-13
-6.769999999999996e-01	-6.770000e-01	-6.870000e-13
-6.669999999999998e-01	-6.670000e-01	-6.770000e-13
-6.569999999999996e-01	-6.570000e-01	-6.670000e-13
-6.469999999999998e-01	-6.470000e-01	-6.570000e-13
-6.369999999999996e-01	-6.370000e-01	-6.470000e-13
-6.269999999999998e-01	-6.270000e-01	-6.370000e-13
-6.169999999999995e-01	-6.170000e-01	-6.270000e-13
-6.069999999999998e-01	-6.070000e-01	-6.170000e-13
-5.969999999999995e-01	-5.970000e-01	-6.070000e-13
-5.869999999999997e-01	-5.870000e-01	-5.970000e-13
-5.769999999999995e-01	-5.770000e-01	-5.870000e-13
-5.669999999999997e-01	-5.670000e-01	-5.770000e-13
-5.569999999999995e-01	-5.570000e-01	-5.670000e-13
-5.469999999999997e-01	-5.470000e-01	-5.570000e-13
-5.369999999999995e-01	-5.370000e-01	-5.470000e-13
-5.269999999999997e-01	-5.270000e-01	-5.370000e-13
-5.169999999999995e-01	-5.170000e-01	-5.270000e-13
-5.069999999999997e-01	-5.070000e-01	-5.170000e-13
-4.969999999999994e-01	-4.970000e-01	-5.070000e-13
-4.869999999999997e-01	-4.870000e-01	-4.970000e-13
-4.769999999999994e-01	-4.770000e-01	-4.870000e-13
-4.669999999999996e-01	-4.670000e-01	-4.770000e-13
